!CSV A.01.01
!Agilent Technologies,E8363C,SG49030112,A.09.42.10
!Agilent E8363C: A.09.42.10
!Date: Tuesday, October 22, 2019 12:18:01
!Source: Standard

BEGIN CH1_DATA
Freq(Hz),S11(REAL),S11(IMAG)
200000000,0.96710467,0.038697738
205369121.6403,0.96355993,0.045341238
210882380.61654,0.96348959,0.052075222
216543646.38317,0.96422511,0.057779863
222356892.27249,0.9655785,0.059674587
228326198.28334,0.9673059,0.05804342
234455753.94459,0.96749097,0.050703753
240749861.25557,0.96520406,0.040391278
247212937.7054,0.96012491,0.027808258
253849519.37338,0.95143944,0.018998457
260664264.11261,0.94038749,0.016040668
267661954.81911,0.93102086,0.022267384
274847502.78863,0.92566353,0.03590773
282225951.16365,0.92780858,0.054926313
289802478.47288,0.93662947,0.074973121
297582402.26578,0.94969821,0.094565988
305571182.84467,0.96269196,0.10781578
313774427.09698,0.9707908,0.11564226
322197892.43048,0.9705689,0.11611245
330847490.81401,0.96200705,0.11539153
339729292.92685,0.9473725,0.11433748
348849532.41933,0.93437994,0.11333004
358214610.28794,0.92759573,0.10957131
367831099.36777,0.93626589,0.10353846
377705748.94573,0.9534747,0.087677702
387845489.49737,0.96843868,0.054253973
398257437.55113,0.95156294,0.020022703
408948900.68296,0.92754263,0.026060497
419927382.64512,0.91836345,0.054355863
431200588.63269,0.92393768,0.088521972
442776430.69138,0.93197757,0.10958847
454663033.27057,0.93411684,0.11685884
466868738.92545,0.92600375,0.11398995
479402114.17217,0.91993743,0.10644461
492271955.5002,0.92489678,0.088283762
505487295.54614,0.93538088,0.06498532
519057409.4332,0.95558041,0.060390271
532991821.28093,0.95015597,0.054635845
547300310.88963,0.92798477,0.062273469
561992920.60433,0.93461716,0.087352902
577079962.36289,0.94370574,0.087519199
592572024.93341,0.93292928,0.063539967
608479981.34594,0.90827948,0.043638248
624814996.5236,0.90379512,0.041262623
641588535.11869,0.92907214,0.042339884
658812369.55905,0.94841433,0.041243989
676498588.31053,0.93306667,0.059435032
694659604.36117,0.91326535,0.094767258
713308163.93325,0.91296393,0.10594101
732457355.42913,0.91234201,0.08089745
752120618.61728,0.92328149,0.085283913
772311754.06494,0.94979459,0.10072899
793044932.82397,0.97578436,0.10147913
814334706.37674,0.9623037,0.10976031
836196016.84901,0.9571802,0.11099266
858644207.49698,0.97433543,0.047664482
881695033.47592,0.95170087,-0.0036904532
905364672.89782,0.95649201,0.033371154
929669738.1859,0.98446643,0.052538961
954627287.73402,0.94514191,0.023540528
980254837.87898,0.92093402,0.0046305791
1006570375.1943,0.93448734,-0.023717636
1033592369.114,0.93698859,0.017419655
1061339784.8953,0.95699984,0.049587827
1089832096.9292,0.9180007,0.0044564758
1119089302.4088,0.91547281,-0.012406721
1149131935.3637,0.93208474,0.0032546017
1179981081.0723,0.9449169,0.07943476
1211658390.86,0.95098692,0.01155749
1244186097.295,0.92259002,-0.0055566169
1277587029.7928,0.99451917,0.004421975
1311884630.6379,0.93826318,0.021634331
1347102971.4375,0.91767985,-0.026016084
1383266770.0158,0.91327518,-0.01856276
1420401407.7618,0.94903016,0.0053923265
1458532947.4434,0.88352233,0.006671879
1497688151.4994,0.92209548,0.00091644569
1537894500.8226,0.99178952,0.023170182
1579180214.0469,0.88902211,-0.027911937
1621574267.3528,0.94616073,-0.075576864
1665106414.8037,0.93657392,-0.056627501
1709807209.2294,0.86300391,-0.081314206
1755708023.6684,0.92371255,-0.11613128
1802841073.388,0.87832969,-0.091913156
1851239438.4938,0.8530311,-0.09434323
1900937087.1467,0.87680286,-0.12775998
1951968899.4039,0.8922962,-0.10011032
2004370691.6988,0.9116413,-0.16495863
2058179241.9787,0.87010849,-0.18861359
2113432315.5173,0.86000472,-0.22181353
2170168691.42,0.86915982,-0.23626271
2228428189.841,0.90114385,-0.23830929
2288251699.9307,0.88352865,-0.28371269
2349681208.5334,0.87451851,-0.23664701
2412759829.6561,0.86022198,-0.27008131
2477531834.7273,0.85071146,-0.24480234
2544042683.6691,0.84334016,-0.30413136
2612339056.8028,0.87225664,-0.24149124
2682468887.6112,0.88911831,-0.28561589
2754481396.3807,0.83560199,-0.3027595
2828427124.7462,0.85816574,-0.29245585
2904357971.1636,0.81799757,-0.35429752
2982327227.3343,0.82183987,-0.35766205
3062389615.608,0.86652178,-0.37293643
3144601327.3889,0.76223785,-0.39906317
3229020062.5739,0.75360954,-0.34676355
3315705070.0485,0.82663029,-0.37984234
3404717189.2707,0.79872811,-0.39671701
3496118892.9707,0.73692709,-0.37259614
3589974330.9972,0.74279165,-0.37399122
3686349375.3406,0.75167269,-0.35693184
3785311666.3648,0.77846259,-0.37528062
3886930660.2806,0.75609452,-0.39952824
3991277677.8928,0.74690771,-0.43043229
4098425954.6569,0.65210646,-0.46571121
4208450692.0784,0.63998884,-0.51743859
4321429110.4932,0.64595878,-0.52885234
4437440503.264,0.62648124,-0.50428712
4556566292.4321,0.67663205,-0.49325621
4678890085.8628,0.71842295,-0.47810456
4804497735.9257,0.72880346,-0.44342873
4933477399.7493,0.77091593,-0.43744975
5065919601.0939,0.70579886,-0.50159979
5201917293.8851,0.71116883,-0.48256314
5341565927.4533,0.67279905,-0.44530433
5484963513.5241,0.6267612,-0.50291157
5632210695.0077,0.53960919,-0.57045984
5783410816.6341,0.52332205,-0.5932492
5938669997.4857,0.59921652,-0.58549947
6098097205.4762,0.55970746,-0.58968824
6261804333.829,0.54370528,-0.60586679
6429906279.6093,0.60602385,-0.54164779
6602521024.364,0.59531724,-0.55741245
6779769716.9262,0.61198193,-0.47578529
6961776758.4431,0.57730937,-0.54470891
7148669889.6865,0.47515786,-0.49396902
7340580280.7068,0.4358086,-0.70501626
7537642622.8943,0.26279613,-0.67113572
7739995223.5113,0.36434442,-0.66166061
7947780102.7631,0.35132033,-0.71442258
8161143093.4735,0.39776987,-0.64052641
8380233943.4371,0.4323535,-0.59446263
8605206420.5195,0.44767913,-0.58073097
8836218420.5777,0.28718719,-0.61724532
9073432078.2793,0.15232095,-0.63708991
9317013880.8956,0.033397354,-0.70288616
9567134785.15,0.085633107,-0.76500666
9823970337.203,0.24637216,-0.68906158
10087700795.859,0.42368886,-0.57385671
10358511259.078,0.28683907,-0.54976124
10636591793.89,0.036915135,-0.68080246
10922137569.788,0.098982714,-0.7303409
11215348995.709,-0.10430254,-0.66144133
11516431860.691,0.13848335,-0.73728621
11825597478.302,0.24353583,-0.62152219
12143062834.953,0.19840017,-0.57133418
12469050742.186,-0.033605557,-0.5790115
12803789993.056,-0.19018705,-0.75577813
13147515522.703,-0.034818891,-0.73815358
13500468573.249,0.096435152,-0.5914889
13862896863.103,-0.0020901377,-0.62580657
14235054760.827,-0.060057543,-0.64237863
14617203463.663,-0.13384677,-0.66817677
15009611180.85,0.080378279,-0.60524881
15412553321.868,0.064348385,-0.52231997
15826312689.732,-0.28773627,-0.40696001
16251179679.474,-0.39613178,-0.69540203
16687452481.962,-0.18228155,-0.47470838
17135437293.173,-0.086254694,-0.64357966
17595448529.107,-0.23358712,-0.35497087
18067809046.449,-0.26228777,-0.54755729
18552850369.169,-0.077833086,-0.66810364
19050912921.201,-0.13854857,-0.4406817
19562346265.364,-0.53861427,-0.20637293
20087509348.706,-0.43091068,-0.5768072
20626770754.425,-0.081898585,-0.50368392
21180508960.56,-0.35863462,-0.12771001
21749112605.624,-0.51308459,-0.43961048
22332980761.364,-0.18077606,-0.66509438
22932523212.855,-0.5294171,-0.078542367
23548160746.099,-0.55469787,-0.38447309
24180325443.354,0.089419171,-0.30536386
24829460986.391,-0.59527349,-0.011981147
25496022967.886,-0.31392255,-0.44438171
26180479211.178,-0.085673667,-0.18698406
26883310098.609,-0.52940053,-0.42270043
27605008908.675,0.0010165592,-0.37317595
28346082162.236,-0.68171859,-0.12154
29107049978.011,0.0085146837,-0.54302627
29888446437.621,-0.59753305,-0.049404975
30690819960.437,-0.080419227,-0.60310006
31514733688.477,-0.47711173,0.20375274
32360765881.653,0.097209163,-0.58115524
33229510323.611,-0.55969495,-0.11015166
34121576738.487,-0.066309191,-0.41482949
35037591218.825,-0.5247789,-0.35991034
35978196665.009,0.053601414,-0.28380331
36944053236.475,-0.38712075,-0.32671821
37935838815.036,0.015701227,-0.26365438
38954249480.659,0.013384629,-0.5914647
40000000000,0.26161405,-0.11994683
END

