!CSV A.01.01
!Agilent Technologies,E8363C,SG49030112,A.09.42.10
!Agilent E8363C: A.09.42.10
!Date: Friday, June 11, 2021 12:19:56
!Source: Standard

BEGIN CH1_DATA
Freq(Hz),S11(REAL),S11(IMAG)
200000000,0.77852446,-0.1202999
205369121.6403,0.77605623,-0.11573225
210882380.61654,0.77564126,-0.11177747
216543646.38317,0.77539617,-0.10907342
222356892.27249,0.77446568,-0.10962995
228326198.28334,0.77351707,-0.11277214
234455753.94459,0.76998937,-0.12013597
240749861.25557,0.76524013,-0.1292899
247212937.7054,0.75877613,-0.13970515
253849519.37338,0.75113744,-0.14700775
260664264.11261,0.74365056,-0.15015645
267661954.81911,0.73933548,-0.14681095
274847502.78863,0.73941022,-0.13886139
282225951.16365,0.74592,-0.1276633
289802478.47288,0.75700718,-0.11640333
297582402.26578,0.77059263,-0.10556228
305571182.84467,0.78226537,-0.098504812
313774427.09698,0.78904003,-0.09420491
322197892.43048,0.78754592,-0.093874454
330847490.81401,0.77949935,-0.093535975
339729292.92685,0.76659715,-0.093779393
348849532.41933,0.75435615,-0.094997525
358214610.28794,0.74647081,-0.10029683
367831099.36777,0.75075769,-0.11078934
377705748.94573,0.76085335,-0.13093594
387845489.49737,0.76600385,-0.16432063
398257437.55113,0.74740326,-0.19020504
408948900.68296,0.73245376,-0.18384185
419927382.64512,0.73242331,-0.16258493
431200588.63269,0.74306637,-0.13957402
442776430.69138,0.75088948,-0.12573107
454663033.27057,0.75097638,-0.12081268
466868738.92545,0.74167752,-0.12340304
479402114.17217,0.73352879,-0.13267781
492271955.5002,0.73144466,-0.15314326
505487295.54614,0.73361105,-0.17891333
519057409.4332,0.74977285,-0.19107562
532991821.28093,0.74759895,-0.19801708
547300310.88963,0.73324543,-0.19129096
561992920.60433,0.74116611,-0.17649487
577079962.36289,0.74196738,-0.17933245
592572024.93341,0.72405243,-0.19506188
608479981.34594,0.70086002,-0.2100288
624814996.5236,0.69773954,-0.21943888
641588535.11869,0.7166425,-0.23209116
658812369.55905,0.73151356,-0.23978049
676498588.31053,0.72616071,-0.22351821
694659604.36117,0.71772832,-0.19495787
713308163.93325,0.71247995,-0.191438
732457355.42913,0.70039552,-0.21408202
752120618.61728,0.71315384,-0.22178042
772311754.06494,0.74016005,-0.22642234
793044932.82397,0.75829482,-0.23602052
814334706.37674,0.74827248,-0.22839223
836196016.84901,0.73560065,-0.23412238
858644207.49698,0.71921062,-0.29142916
881695033.47592,0.69301027,-0.32769737
905364672.89782,0.71207643,-0.31206438
929669738.1859,0.72972798,-0.30828446
954627287.73402,0.68439502,-0.31553856
980254837.87898,0.65497661,-0.33248207
1006570375.1943,0.65606213,-0.36492151
1033592369.114,0.67774111,-0.34227216
1061339784.8953,0.69204235,-0.32716396
1089832096.9292,0.63964301,-0.34771436
1119089302.4088,0.62931353,-0.37310475
1149131935.3637,0.65261525,-0.37329254
1179981081.0723,0.68442702,-0.32914597
1211658390.86,0.6481058,-0.37598574
1244186097.295,0.62585026,-0.39709324
1277587029.7928,0.67484993,-0.422342
1311884630.6379,0.64023519,-0.38392887
1347102971.4375,0.5919292,-0.41404545
1383266770.0158,0.59657061,-0.42543301
1420401407.7618,0.62462938,-0.41903183
1458532947.4434,0.57370687,-0.39474854
1497688151.4994,0.59261006,-0.43338495
1537894500.8226,0.64106715,-0.45030588
1579180214.0469,0.54558253,-0.43941021
1621574267.3528,0.54481816,-0.50842923
1665106414.8037,0.54922932,-0.49218205
1709807209.2294,0.48066255,-0.4755322
1755708023.6684,0.489611,-0.53510278
1802841073.388,0.47522914,-0.50046778
1851239438.4938,0.44489348,-0.5011583
1900937087.1467,0.44137844,-0.53237498
1951968899.4039,0.44563365,-0.53278196
2004370691.6988,0.41449609,-0.58944994
2058179241.9787,0.37234411,-0.58289629
2113432315.5173,0.34056255,-0.59728318
2170168691.42,0.33081418,-0.61361605
2228428189.841,0.33546481,-0.63538909
2288251699.9307,0.28946799,-0.65601331
2349681208.5334,0.30406255,-0.63295686
2412759829.6561,0.26581246,-0.6460759
2477531834.7273,0.27459115,-0.63004112
2544042683.6691,0.2226041,-0.65655339
2612339056.8028,0.26643384,-0.64073896
2682468887.6112,0.23435192,-0.68481636
2754481396.3807,0.18786904,-0.64803433
2828427124.7462,0.20054798,-0.67051297
2904357971.1636,0.13030289,-0.66751242
2982327227.3343,0.13485782,-0.66418755
3062389615.608,0.13273522,-0.71308643
3144601327.3889,0.049216457,-0.65499604
3229020062.5739,0.081317864,-0.62502688
3315705070.0485,0.08189816,-0.69187456
3404717189.2707,0.038752731,-0.68187767
3496118892.9707,0.02278371,-0.62200928
3589974330.9972,0.030302405,-0.62178427
3686349375.3406,0.041305695,-0.63299805
3785311666.3648,0.026466146,-0.64717495
3886930660.2806,-0.0091068875,-0.64013779
3991277677.8928,-0.042033877,-0.62908888
4098425954.6569,-0.10113516,-0.57658207
4208450692.0784,-0.14962561,-0.58319789
4321429110.4932,-0.16593623,-0.58855879
4437440503.264,-0.1682581,-0.57878202
4556566292.4321,-0.16261338,-0.61810648
4678890085.8628,-0.14963792,-0.6322422
4804497735.9257,-0.1305135,-0.62939888
4933477399.7493,-0.11803266,-0.64391893
5065919601.0939,-0.17687069,-0.62640858
5201917293.8851,-0.15773843,-0.62740237
5341565927.4533,-0.13824113,-0.60461342
5484963513.5241,-0.1494797,-0.57710934
5632210695.0077,-0.20819716,-0.51794797
5783410816.6341,-0.27443218,-0.49858615
5938669997.4857,-0.26745349,-0.55384058
6098097205.4762,-0.27275795,-0.53042418
6261804333.829,-0.34879839,-0.50880283
6429906279.6093,-0.29465672,-0.53854656
6602521024.364,-0.35648385,-0.53528047
6779769716.9262,-0.22077911,-0.57681113
6961776758.4431,-0.29264373,-0.51462919
7148669889.6865,-0.17548946,-0.56658161
7340580280.7068,-0.34123603,-0.49841607
7537642622.8943,-0.26259789,-0.40834907
7739995223.5113,-0.3784017,-0.44483319
7947780102.7631,-0.48285711,-0.34788069
8161143093.4735,-0.45578638,-0.36631489
8380233943.4371,-0.455621,-0.40405798
8605206420.5195,-0.3322866,-0.44474256
8836218420.5777,-0.29235089,-0.48740083
9073432078.2793,-0.24613953,-0.46246904
9317013880.8956,-0.28378338,-0.37621626
9567134785.15,-0.37902224,-0.2381897
9823970337.203,-0.48692843,-0.16859527
10087700795.859,-0.53596896,-0.32272616
10358511259.078,-0.43987557,-0.49453735
10636591793.89,-0.30377603,-0.40596822
10922137569.788,-0.40865293,-0.34188381
11215348995.709,-0.36999881,-0.37044969
11516431860.691,-0.48089311,-0.043833945
11825597478.302,-0.54859674,-0.22819373
12143062834.953,-0.57286292,-0.29077837
12469050742.186,-0.47650495,-0.4555268
12803789993.056,-0.27741387,-0.30864027
13147515522.703,-0.37657905,-0.13261709
13500468573.249,-0.52090609,-0.10502864
13862896863.103,-0.49573728,-0.13163419
14235054760.827,-0.47344893,-0.17068757
14617203463.663,-0.41757804,-0.14857659
15009611180.85,-0.48935974,-0.055688664
15412553321.868,-0.58946353,0.012552951
15826312689.732,-0.63430345,-0.15058812
16251179679.474,-0.34202078,-0.36850682
16687452481.962,-0.55000424,-0.094343178
17135437293.173,-0.39376485,0.029219143
17595448529.107,-0.56254488,0.17364565
18067809046.449,-0.37567937,-0.21837537
18552850369.169,-0.27831379,-0.21929999
19050912921.201,-0.36444345,0.074441954
19562346265.364,-0.65899259,0.11694591
20087509348.706,-0.52382982,-0.3288511
20626770754.425,-0.36989957,-0.14730836
21180508960.56,-0.37970167,0.22704449
21749112605.624,-0.62679809,-0.091636762
22332980761.364,-0.5071317,-0.37649417
22932523212.855,-0.43209442,0.23049146
23548160746.099,-0.63119322,0.11679021
24180325443.354,-0.19451916,-0.44296813
24829460986.391,-0.3782261,0.26992592
25496022967.886,-0.52600443,-0.051090915
26180479211.178,-0.44187713,-0.4320738
26883310098.609,-0.50757289,0.3265292
27605008908.675,-0.5449577,-0.40532175
28346082162.236,-0.18834443,0.11969162
29107049978.011,-0.6272369,-0.037300736
29888446437.621,-0.11035263,-0.34661767
30690819960.437,-0.60695571,0.23003282
31514733688.477,-0.13786153,-0.59260261
32360765881.653,-0.44578588,0.10843512
33229510323.611,-0.093816482,-0.53942531
34121576738.487,-0.34386092,-0.034821905
35037591218.825,-0.016168339,-0.55939722
35978196665.009,-0.41727766,-0.058946997
36944053236.475,-0.25329939,-0.44910872
37935838815.036,-0.0027690304,-0.49045366
38954249480.659,0.056796674,-0.51741523
40000000000,0.1102737,-0.19056219
END

