"# Channel 1"
"# Trace 1"
Frequency, Formatted Data, Formatted Data
+5.00000000000E+007, +9.91261520033E-001, -2.70269768867E-002
+5.11853458461E+007, +9.90851507058E-001, -2.81974937901E-002
+5.23706916923E+007, +9.90423801441E-001, -2.94597593709E-002
+5.35560375384E+007, +9.89969920524E-001, -3.07089945525E-002
+5.47413833845E+007, +9.89515339073E-001, -3.20037368568E-002
+5.59267292306E+007, +9.89037669130E-001, -3.33363488227E-002
+5.71120750768E+007, +9.88552046651E-001, -3.46650140273E-002
+5.82974209229E+007, +9.88056147991E-001, -3.60237501868E-002
+5.94827667690E+007, +9.87564562738E-001, -3.73951901389E-002
+6.06681126151E+007, +9.87060973750E-001, -3.87742346023E-002
+6.18534584613E+007, +9.86550064624E-001, -4.01701372331E-002
+6.30388043074E+007, +9.86013915074E-001, -4.15562291707E-002
+6.42241501535E+007, +9.85494255782E-001, -4.29495896229E-002
+6.54094959996E+007, +9.84967702171E-001, -4.43508437984E-002
+6.65948418458E+007, +9.84464573139E-001, -4.57649994457E-002
+6.79722033673E+007, +9.83881950133E-001, -4.74207030177E-002
+6.96010170503E+007, +9.83194480601E-001, -4.93483217542E-002
+7.12298307333E+007, +9.82506377583E-001, -5.12760026032E-002
+7.28586444162E+007, +9.81843561434E-001, -5.32060446729E-002
+7.44874580992E+007, +9.81162299038E-001, -5.51339748714E-002
+7.61162717822E+007, +9.80466754302E-001, -5.70206453138E-002
+7.77450854652E+007, +9.79792459737E-001, -5.88833655163E-002
+7.93738991482E+007, +9.79131217348E-001, -6.06873020678E-002
+8.10027128312E+007, +9.78486807425E-001, -6.24567670039E-002
+8.26315265142E+007, +9.77873096533E-001, -6.42080699732E-002
+8.42603401972E+007, +9.77276605705E-001, -6.59480232420E-002
+8.58891538801E+007, +9.76695396922E-001, -6.76527271234E-002
+8.75179675631E+007, +9.76142876862E-001, -6.93069735945E-002
+8.91467812461E+007, +9.75634472012E-001, -7.09009831716E-002
+9.07755949291E+007, +9.75101118612E-001, -7.24979084491E-002
+9.24044086121E+007, +9.74654438470E-001, -7.40289970908E-002
+9.43155818098E+007, +9.74156915948E-001, -7.57762035227E-002
+9.65515134723E+007, +9.73628008197E-001, -7.76876548250E-002
+9.87874451347E+007, +9.73156251119E-001, -7.94685874723E-002
+1.01023376797E+008, +9.72724000845E-001, -8.12811889670E-002
+1.03259308460E+008, +9.72393863403E-001, -8.30895927334E-002
+1.05495240122E+008, +9.72107440095E-001, -8.47865487017E-002
+1.07731171785E+008, +9.71887458568E-001, -8.63348825742E-002
+1.09967103447E+008, +9.71717281718E-001, -8.77735478350E-002
+1.12203035110E+008, +9.71628176820E-001, -8.90817844968E-002
+1.14438966772E+008, +9.71571364206E-001, -9.03173665994E-002
+1.16674898434E+008, +9.71571221091E-001, -9.14486197914E-002
+1.18910830097E+008, +9.71601948739E-001, -9.24693720527E-002
+1.21146761759E+008, +9.71670910721E-001, -9.33922036253E-002
+1.23382693422E+008, +9.71775778201E-001, -9.41944379260E-002
+1.25618625084E+008, +9.71925333880E-001, -9.49425264017E-002
+1.28216758150E+008, +9.72124844490E-001, -9.58070845525E-002
+1.31289208353E+008, +9.72348839740E-001, -9.67327733802E-002
+1.34361658556E+008, +9.72584621310E-001, -9.75394613116E-002
+1.37434108760E+008, +9.72782874982E-001, -9.81889089711E-002
+1.40506558963E+008, +9.72979799713E-001, -9.87398921358E-002
+1.43579009167E+008, +9.73140327144E-001, -9.92367655792E-002
+1.46651459370E+008, +9.73280988575E-001, -9.97535311679E-002
+1.49723909573E+008, +9.73355219010E-001, -1.00367521195E-001
+1.52796359777E+008, +9.73341896135E-001, -1.01066482836E-001
+1.55868809980E+008, +9.73241168383E-001, -1.01823320317E-001
+1.58941260184E+008, +9.73037253292E-001, -1.02555965893E-001
+1.62013710387E+008, +9.72770154238E-001, -1.03230619742E-001
+1.65086160591E+008, +9.72412274494E-001, -1.03969984193E-001
+1.68158610794E+008, +9.71962590281E-001, -1.04851758444E-001
+1.71231060997E+008, +9.71428713058E-001, -1.05905903556E-001
+1.74303511201E+008, +9.70783453099E-001, -1.07193577971E-001
+1.77908579442E+008, +9.69907670797E-001, -1.08945998577E-001
+1.82126243355E+008, +9.68728244405E-001, -1.11213020190E-001
+1.86343907268E+008, +9.67270703928E-001, -1.13280809731E-001
+1.90561571180E+008, +9.65691802096E-001, -1.15549307502E-001
+1.94779235093E+008, +9.64032348188E-001, -1.17877431505E-001
+1.98996899006E+008, +9.62407252028E-001, -1.19866046233E-001
+2.03214562918E+008, +9.60993850368E-001, -1.21591137554E-001
+2.07432226831E+008, +9.59703225226E-001, -1.22195811211E-001
+2.11649890744E+008, +9.58059287786E-001, -1.22983522020E-001
+2.15867554656E+008, +9.56273277539E-001, -1.25071274588E-001
+2.20085218569E+008, +9.54587816591E-001, -1.27805711694E-001
+2.24302882482E+008, +9.53073152143E-001, -1.30661515882E-001
+2.28520546394E+008, +9.51780226485E-001, -1.33282562411E-001
+2.32738210307E+008, +9.50708354603E-001, -1.35679782133E-001
+2.36955874219E+008, +9.49872228534E-001, -1.37903142256E-001
+2.41856762853E+008, +9.49219312298E-001, -1.40146674413E-001
+2.47652361423E+008, +9.48805153100E-001, -1.42535058548E-001
+2.53447959994E+008, +9.48880999252E-001, -1.43687665427E-001
+2.59243558564E+008, +9.49331962536E-001, -1.44282445692E-001
+2.65039157134E+008, +9.49888937495E-001, -1.45359501630E-001
+2.70834755705E+008, +9.50439032643E-001, -1.46832900329E-001
+2.76630354275E+008, +9.50717541458E-001, -1.48839041299E-001
+2.82425952845E+008, +9.50715438895E-001, -1.51090311906E-001
+2.88221551416E+008, +9.50518528443E-001, -1.53499785885E-001
+2.94017149986E+008, +9.49962812981E-001, -1.56299621698E-001
+2.99812748556E+008, +9.48921372792E-001, -1.59549964227E-001
+3.05608347127E+008, +9.46535715961E-001, -1.65538711947E-001
+3.11403945697E+008, +9.43533444294E-001, -1.71660674420E-001
+3.17199544267E+008, +9.40204649520E-001, -1.77541618511E-001
+3.22995142838E+008, +9.36877898741E-001, -1.83052172661E-001
+3.28790741408E+008, +9.33523557916E-001, -1.88654212277E-001
+3.35591023581E+008, +9.29845504925E-001, -1.95672285347E-001
+3.43546852097E+008, +9.27244624835E-001, -2.02117104314E-001
+3.51502680613E+008, +9.26415059479E-001, -1.91747806636E-001
+3.59458509129E+008, +9.22213927827E-001, -1.93148413056E-001
+3.67414337645E+008, +9.19305127862E-001, -2.01734760528E-001
+3.75370166161E+008, +9.17100338710E-001, -2.08622035802E-001
+3.83325994677E+008, +9.15806611114E-001, -2.11559533020E-001
+3.91281823193E+008, +9.15524630228E-001, -2.12927000821E-001
+3.99237651709E+008, +9.16018188457E-001, -2.13231722439E-001
+4.07193480225E+008, +9.16415247278E-001, -2.14554151341E-001
+4.15149308741E+008, +9.17031682045E-001, -2.15174463956E-001
+4.23105137257E+008, +9.17590281411E-001, -2.15273748011E-001
+4.31060965773E+008, +9.17748612090E-001, -2.15409414302E-001
+4.39016794289E+008, +9.17173812946E-001, -2.15612610668E-001
+4.46972622805E+008, +9.15678867804E-001, -2.16631037963E-001
+4.56217226062E+008, +9.12256538278E-001, -2.20121238023E-001
+4.67149531084E+008, +9.06359017754E-001, -2.26446193633E-001
+4.78081836106E+008, +8.99158735895E-001, -2.34618379575E-001
+4.89014141128E+008, +8.91526898095E-001, -2.44139015561E-001
+4.99946446150E+008, +8.84224954466E-001, -2.54698498380E-001
+5.10878751172E+008, +8.77921372863E-001, -2.64027178207E-001
+5.21811056194E+008, +8.73475012059E-001, -2.72902106560E-001
+5.32743361216E+008, +8.71267810456E-001, -2.80025853899E-001
+5.43675666238E+008, +8.71017640208E-001, -2.83900874667E-001
+5.54607971260E+008, +8.71791596674E-001, -2.86230538621E-001
+5.65540276281E+008, +8.73078202890E-001, -2.86116775334E-001
+5.76472581303E+008, +8.73835421459E-001, -2.84892821028E-001
+5.87404886325E+008, +8.73367393381E-001, -2.83357605566E-001
+5.98337191347E+008, +8.71022331406E-001, -2.82349119119E-001
+6.09269496369E+008, +8.66998747287E-001, -2.83151370413E-001
+6.20201801391E+008, +8.60735880019E-001, -2.85747230951E-001
+6.33029252784E+008, +8.51896596276E-001, -2.92305004514E-001
+6.48036424690E+008, +8.41827591461E-001, -3.01473995146E-001
+6.63043596595E+008, +8.33876015450E-001, -3.11157300368E-001
+6.78050768500E+008, +8.29255991963E-001, -3.21168164052E-001
+6.93057940405E+008, +8.28333842949E-001, -3.26935605907E-001
+7.08065112311E+008, +8.29642379449E-001, -3.26350037297E-001
+7.23072284216E+008, +8.31374004700E-001, -3.22655724144E-001
+7.38079456121E+008, +8.31009913976E-001, -3.18088379793E-001
+7.53086628027E+008, +8.27090113444E-001, -3.15769137488E-001
+7.68093799932E+008, +8.19103660674E-001, -3.17690111692E-001
+7.83100971837E+008, +8.07117580353E-001, -3.25534096806E-001
+7.98108143742E+008, +7.94369169973E-001, -3.36469019334E-001
+8.13115315648E+008, +7.83776509077E-001, -3.51460603309E-001
+8.28122487553E+008, +7.77747100789E-001, -3.63879157542E-001
+8.43129659458E+008, +7.76789898884E-001, -3.69996724961E-001
+8.60567862154E+008, +7.80209105431E-001, -3.68835171376E-001
+8.81189596327E+008, +7.83890247201E-001, -3.60471235578E-001
+9.01811330501E+008, +7.80269955719E-001, -3.52741038952E-001
+9.22433064674E+008, +7.67234653191E-001, -3.52325110735E-001
+9.43054798847E+008, +7.48304695850E-001, -3.65091307831E-001
+9.63676533021E+008, +7.30768262555E-001, -3.86572586905E-001
+9.84298267194E+008, +7.23272516630E-001, -4.05061980103E-001
+1.00492000137E+009, +7.28935214109E-001, -4.06099845851E-001
+1.02554173554E+009, +7.39717935326E-001, -3.90066581627E-001
+1.04616346971E+009, +7.46506136271E-001, -3.64955539524E-001
+1.06678520389E+009, +7.40817945946E-001, -3.46768983160E-001
+1.08740693806E+009, +7.22113520092E-001, -3.47594437957E-001
+1.10802867223E+009, +6.98273174393E-001, -3.69541917145E-001
+1.12865040641E+009, +6.78087387126E-001, -4.04407506865E-001
+1.14927214058E+009, +6.68869007719E-001, -4.32116679248E-001
+1.16989387475E+009, +6.74451714349E-001, -4.37833642544E-001
+1.19409044558E+009, +6.86774709755E-001, -4.16269463647E-001
+1.22239864857E+009, +6.89354058745E-001, -3.80445381787E-001
+1.25070685156E+009, +6.70806327685E-001, -3.71935649265E-001
+1.27901505455E+009, +6.45610257470E-001, -3.99777196696E-001
+1.30732325754E+009, +6.32856719718E-001, -4.30844315689E-001
+1.33563146054E+009, +6.36669190277E-001, -4.31223405998E-001
+1.36393966353E+009, +6.41161631420E-001, -4.04174968871E-001
+1.39224786652E+009, +6.29074744624E-001, -3.87257958389E-001
+1.42055606951E+009, +6.04525995101E-001, -4.01969853050E-001
+1.44886427250E+009, +5.86099491248E-001, -4.33035466091E-001
+1.47717247549E+009, +5.85449365459E-001, -4.44482963405E-001
+1.50548067848E+009, +5.89955026549E-001, -4.30861093592E-001
+1.53378888148E+009, +5.86983290421E-001, -4.08381113231E-001
+1.56209708447E+009, +5.71724889094E-001, -4.04784844657E-001
+1.59040528746E+009, +5.56130522635E-001, -4.21537898419E-001
+1.62329917212E+009, +5.49117256410E-001, -4.38530908368E-001
+1.66219818925E+009, +5.47198304992E-001, -4.26932667186E-001
+1.70109720638E+009, +5.31204160095E-001, -4.15012163330E-001
+1.73999622351E+009, +5.11761319725E-001, -4.32162107291E-001
+1.77889524064E+009, +5.07631360208E-001, -4.43992484874E-001
+1.81779425777E+009, +5.02127157845E-001, -4.30049849221E-001
+1.85669327490E+009, +4.85723291973E-001, -4.23388903831E-001
+1.89559229203E+009, +4.69038680706E-001, -4.43358258555E-001
+1.93449130915E+009, +4.64570998755E-001, -4.51670821300E-001
+1.97339032628E+009, +4.60031210322E-001, -4.32864753607E-001
+2.01228934341E+009, +4.39466002339E-001, -4.31890940039E-001
+2.05118836054E+009, +4.21363964052E-001, -4.57446766776E-001
+2.09008737767E+009, +4.23252839694E-001, -4.62263467171E-001
+2.12898639480E+009, +4.25407648404E-001, -4.36700382998E-001
+2.16788541193E+009, +4.15911217475E-001, -4.35057263844E-001
+2.20678442906E+009, +3.88520038730E-001, -4.61882590529E-001
+2.25242670217E+009, +3.94846367511E-001, -4.62093821237E-001
+2.30582479487E+009, +4.06984386909E-001, -4.27942806787E-001
+2.35922288757E+009, +3.73959961267E-001, -4.45805646683E-001
+2.41262098027E+009, +3.75506393454E-001, -4.54927118142E-001
+2.46601907298E+009, +3.95951967201E-001, -4.20243108395E-001
+2.51941716568E+009, +3.64650536785E-001, -4.29298809655E-001
+2.57281525838E+009, +3.66928409875E-001, -4.36700952132E-001
+2.62621335108E+009, +3.87520364766E-001, -4.04388357375E-001
+2.67961144379E+009, +3.62012632804E-001, -4.05893139705E-001
+2.73300953649E+009, +3.51810817356E-001, -4.11890896416E-001
+2.78640762919E+009, +3.59708455511E-001, -3.98406556412E-001
+2.83980572189E+009, +3.37510633825E-001, -3.99054552654E-001
+2.89320381460E+009, +3.28587218524E-001, -4.04888046080E-001
+2.94660190730E+009, +3.35462466610E-001, -3.96656844990E-001
+3.00000000000E+009, +3.20904405090E-001, -3.91792329335E-001
