"# Channel 1"
"# Trace 1"
Frequency, Formatted Data, Formatted Data
+5.00000000000E+007, +9.89388015507E-001, -6.33002828492E-002
+5.11853458461E+007, +9.88869352094E-001, -6.53349246802E-002
+5.23706916923E+007, +9.88315451008E-001, -6.73958695088E-002
+5.35560375384E+007, +9.87776162849E-001, -6.95126491146E-002
+5.47413833845E+007, +9.87200328346E-001, -7.16518017873E-002
+5.59267292306E+007, +9.86611612698E-001, -7.38324751786E-002
+5.71120750768E+007, +9.86012176761E-001, -7.60119790734E-002
+5.82974209229E+007, +9.85386629992E-001, -7.82117416172E-002
+5.94827667690E+007, +9.84773932079E-001, -8.04247356361E-002
+6.06681126151E+007, +9.84133710368E-001, -8.26399234241E-002
+6.18534584613E+007, +9.83471453697E-001, -8.48546055514E-002
+6.30388043074E+007, +9.82820635390E-001, -8.70892534793E-002
+6.42241501535E+007, +9.82169078783E-001, -8.93036911527E-002
+6.54094959996E+007, +9.81503175395E-001, -9.15266861614E-002
+6.65948418458E+007, +9.80852578269E-001, -9.37578330119E-002
+6.79722033673E+007, +9.80101906808E-001, -9.63657843585E-002
+6.96010170503E+007, +9.79210978480E-001, -9.94259679782E-002
+7.12298307333E+007, +9.78329490330E-001, -1.02474296435E-001
+7.28586444162E+007, +9.77447979283E-001, -1.05516615475E-001
+7.44874580992E+007, +9.76560042748E-001, -1.08547189047E-001
+7.61162717822E+007, +9.75671048480E-001, -1.11544028015E-001
+7.77450854652E+007, +9.74776019099E-001, -1.14507340314E-001
+7.93738991482E+007, +9.73912035645E-001, -1.17399191457E-001
+8.10027128312E+007, +9.73038091687E-001, -1.20256018650E-001
+8.26315265142E+007, +9.72216685001E-001, -1.23092018958E-001
+8.42603401972E+007, +9.71408273797E-001, -1.25914274383E-001
+8.58891538801E+007, +9.70604222325E-001, -1.28701480899E-001
+8.75179675631E+007, +9.69830918883E-001, -1.31439545831E-001
+8.91467812461E+007, +9.69101057110E-001, -1.34113437667E-001
+9.07755949291E+007, +9.68375158619E-001, -1.36779912659E-001
+9.24044086121E+007, +9.67704262797E-001, -1.39348057117E-001
+9.43155818098E+007, +9.66951298269E-001, -1.42363002337E-001
+9.65515134723E+007, +9.66134558918E-001, -1.45733041843E-001
+9.87874451347E+007, +9.65352826908E-001, -1.48989141715E-001
+1.01023376797E+008, +9.64639601703E-001, -1.52266402431E-001
+1.03259308460E+008, +9.63992342873E-001, -1.55532046760E-001
+1.05495240122E+008, +9.63416036567E-001, -1.58683547215E-001
+1.07731171785E+008, +9.62913809282E-001, -1.61711803168E-001
+1.09967103447E+008, +9.62461411232E-001, -1.64592214360E-001
+1.12203035110E+008, +9.62059783162E-001, -1.67380863868E-001
+1.14438966772E+008, +9.61723327614E-001, -1.70084690890E-001
+1.16674898434E+008, +9.61429912337E-001, -1.72698859173E-001
+1.18910830097E+008, +9.61181532022E-001, -1.75201729586E-001
+1.21146761759E+008, +9.60936688072E-001, -1.77603584984E-001
+1.23382693422E+008, +9.60775003202E-001, -1.79883320547E-001
+1.25618625084E+008, +9.60621036425E-001, -1.82124118342E-001
+1.28216758150E+008, +9.60459628394E-001, -1.84744363048E-001
+1.31289208353E+008, +9.60273179024E-001, -1.87722614231E-001
+1.34361658556E+008, +9.60061590118E-001, -1.90614284289E-001
+1.37434108760E+008, +9.59838893911E-001, -1.93353988271E-001
+1.40506558963E+008, +9.59600762222E-001, -1.95973917530E-001
+1.43579009167E+008, +9.59316422231E-001, -1.98566620025E-001
+1.46651459370E+008, +9.58970292752E-001, -2.01214776461E-001
+1.49723909573E+008, +9.58551994657E-001, -2.03918276389E-001
+1.52796359777E+008, +9.58026345649E-001, -2.06721411073E-001
+1.55868809980E+008, +9.57367421209E-001, -2.09565975192E-001
+1.58941260184E+008, +9.56627214864E-001, -2.12384519821E-001
+1.62013710387E+008, +9.55798808193E-001, -2.15134230143E-001
+1.65086160591E+008, +9.54861130595E-001, -2.17950983171E-001
+1.68158610794E+008, +9.53794904266E-001, -2.20883751569E-001
+1.71231060997E+008, +9.52611767218E-001, -2.23993674395E-001
+1.74303511201E+008, +9.51298171354E-001, -2.27319910329E-001
+1.77908579442E+008, +9.49612953164E-001, -2.31418032400E-001
+1.82126243355E+008, +9.47434757933E-001, -2.36407290367E-001
+1.86343907268E+008, +9.45006411183E-001, -2.41142763497E-001
+1.90561571180E+008, +9.42427842256E-001, -2.46034979761E-001
+1.94779235093E+008, +9.39775613659E-001, -2.50945320215E-001
+1.98996899006E+008, +9.37213835808E-001, -2.55516324376E-001
+2.03214562918E+008, +9.34933275462E-001, -2.59810516438E-001
+2.07432226831E+008, +9.32941251895E-001, -2.62991489903E-001
+2.11649890744E+008, +9.30587458333E-001, -2.66249262216E-001
+2.15867554656E+008, +9.27928093404E-001, -2.70795306600E-001
+2.20085218569E+008, +9.25253462546E-001, -2.75988554582E-001
+2.24302882482E+008, +9.22758803532E-001, -2.81304575632E-001
+2.28520546394E+008, +9.20494347657E-001, -2.86389369958E-001
+2.32738210307E+008, +9.18492914927E-001, -2.91292396290E-001
+2.36955874219E+008, +9.16734766116E-001, -2.96055088195E-001
+2.41856762853E+008, +9.15007376303E-001, -3.01310410215E-001
+2.47652361423E+008, +9.13333754267E-001, -3.07317327958E-001
+2.53447959994E+008, +9.12303840340E-001, -3.12227270558E-001
+2.59243558564E+008, +9.11658541492E-001, -3.16699221060E-001
+2.65039157134E+008, +9.10915776200E-001, -3.21702127356E-001
+2.70834755705E+008, +9.09958982984E-001, -3.27149725838E-001
+2.76630354275E+008, +9.08571906288E-001, -3.33104488957E-001
+2.82425952845E+008, +9.06725125395E-001, -3.39325343149E-001
+2.88221551416E+008, +9.04523931550E-001, -3.45617935220E-001
+2.94017149986E+008, +9.01821429658E-001, -3.52246204235E-001
+2.99812748556E+008, +8.98486068880E-001, -3.59183003438E-001
+3.05608347127E+008, +8.93197813713E-001, -3.68489033040E-001
+3.11403945697E+008, +8.87213095390E-001, -3.77715500680E-001
+3.17199544267E+008, +8.80931189100E-001, -3.86571761705E-001
+3.22995142838E+008, +8.74714080324E-001, -3.95005717037E-001
+3.28790741408E+008, +8.68530563209E-001, -4.03377186909E-001
+3.35591023581E+008, +8.61486115417E-001, -4.13557134472E-001
+3.43546852097E+008, +8.55532752038E-001, -4.24030205688E-001
+3.51502680613E+008, +8.56101069237E-001, -4.17811408236E-001
+3.59458509129E+008, +8.50262971697E-001, -4.22494541254E-001
+3.67414337645E+008, +8.43919756350E-001, -4.34466669727E-001
+3.75370166161E+008, +8.38732200542E-001, -4.44809721461E-001
+3.83325994677E+008, +8.35412765484E-001, -4.51472043711E-001
+3.91281823193E+008, +8.33305969184E-001, -4.56926498774E-001
+3.99237651709E+008, +8.31980868440E-001, -4.61655231269E-001
+4.07193480225E+008, +8.30047574981E-001, -4.67506738363E-001
+4.15149308741E+008, +8.28134523163E-001, -4.72943166767E-001
+4.23105137257E+008, +8.25948384107E-001, -4.78151891317E-001
+4.31060965773E+008, +8.22995182966E-001, -4.83493573942E-001
+4.39016794289E+008, +8.19025033287E-001, -4.88889343304E-001
+4.46972622805E+008, +8.13744859041E-001, -4.94948605445E-001
+4.56217226062E+008, +8.05208740013E-001, -5.03695487919E-001
+4.67149531084E+008, +7.92776412662E-001, -5.15430077797E-001
+4.78081836106E+008, +7.79019269799E-001, -5.28107587914E-001
+4.89014141128E+008, +7.65132481118E-001, -5.41276946842E-001
+4.99946446150E+008, +7.51941786545E-001, -5.54800274490E-001
+5.10878751172E+008, +7.40842472456E-001, -5.66639755577E-001
+5.21811056194E+008, +7.32062237392E-001, -5.77986989726E-001
+5.32743361216E+008, +7.26088815065E-001, -5.87986642681E-001
+5.43675666238E+008, +7.22696390150E-001, -5.95333837263E-001
+5.54607971260E+008, +7.20191406205E-001, -6.01596032430E-001
+5.65540276281E+008, +7.18165876134E-001, -6.06029980778E-001
+5.76472581303E+008, +7.15088246637E-001, -6.09797627171E-001
+5.87404886325E+008, +7.10176879324E-001, -6.13447682847E-001
+5.98337191347E+008, +7.02756409398E-001, -6.17490482072E-001
+6.09269496369E+008, +6.92915513903E-001, -6.23067501986E-001
+6.20201801391E+008, +6.80588627363E-001, -6.29613065312E-001
+6.33029252784E+008, +6.64143490877E-001, -6.39706424829E-001
+6.48036424690E+008, +6.46321556554E-001, -6.52153712537E-001
+6.63043596595E+008, +6.31949231334E-001, -6.64476763458E-001
+6.78050768500E+008, +6.21406092518E-001, -6.77054946838E-001
+6.93057940405E+008, +6.15652675154E-001, -6.86345523544E-001
+7.08065112311E+008, +6.13023749895E-001, -6.90706572252E-001
+7.23072284216E+008, +6.09760044860E-001, -6.93223431229E-001
+7.38079456121E+008, +6.02562467911E-001, -6.95542738073E-001
+7.53086628027E+008, +5.89590236026E-001, -6.99943566506E-001
+7.68093799932E+008, +5.71028791710E-001, -7.07072593636E-001
+7.83100971837E+008, +5.47696036218E-001, -7.17377681369E-001
+7.98108143742E+008, +5.25124415799E-001, -7.28244565048E-001
+8.13115315648E+008, +5.05664179965E-001, -7.41086276459E-001
+8.28122487553E+008, +4.94201400946E-001, -7.51316840934E-001
+8.43129659458E+008, +4.91241003755E-001, -7.57268534972E-001
+8.60567862154E+008, +4.93462118632E-001, -7.59807963494E-001
+8.81189596327E+008, +4.92343637323E-001, -7.59468270963E-001
+9.01811330501E+008, +4.77726433057E-001, -7.60182460247E-001
+9.22433064674E+008, +4.49977275212E-001, -7.65389819340E-001
+9.43054798847E+008, +4.15491345265E-001, -7.77946759490E-001
+9.63676533021E+008, +3.86539020126E-001, -7.93722776601E-001
+9.84298267194E+008, +3.74022458292E-001, -8.05719413949E-001
+1.00492000137E+009, +3.81529926107E-001, -8.05910574313E-001
+1.02554173554E+009, +3.94881195916E-001, -7.94827588671E-001
+1.04616346971E+009, +4.00656077898E-001, -7.82449746314E-001
+1.06678520389E+009, +3.82525739286E-001, -7.80782608894E-001
+1.08740693806E+009, +3.40984742210E-001, -7.91385678826E-001
+1.10802867223E+009, +2.92772400628E-001, -8.11181983753E-001
+1.12865040641E+009, +2.55454308348E-001, -8.32371372208E-001
+1.14927214058E+009, +2.43036176690E-001, -8.44152283916E-001
+1.16989387475E+009, +2.54944714901E-001, -8.43566219323E-001
+1.19409044558E+009, +2.74772555698E-001, -8.29148855627E-001
+1.22239864857E+009, +2.70635728421E-001, -8.14016633393E-001
+1.25070685156E+009, +2.25045570598E-001, -8.18982621217E-001
+1.27901505455E+009, +1.70027183746E-001, -8.37842195028E-001
+1.30732325754E+009, +1.46549362193E-001, -8.49160034875E-001
+1.33563146054E+009, +1.54542418208E-001, -8.42447335239E-001
+1.36393966353E+009, +1.59218485497E-001, -8.26833357376E-001
+1.39224786652E+009, +1.27784554679E-001, -8.22617987468E-001
+1.42055606951E+009, +7.53796179208E-002, -8.31861380270E-001
+1.44886427250E+009, +4.29873035401E-002, -8.42436321565E-001
+1.47717247549E+009, +4.85685299317E-002, -8.41072516672E-001
+1.50548067848E+009, +5.83240916498E-002, -8.29691536705E-001
+1.53378888148E+009, +4.81736873639E-002, -8.19740517322E-001
+1.56209708447E+009, +1.37418389930E-002, -8.21221517087E-001
+1.59040528746E+009, -1.94579820969E-002, -8.29309860156E-001
+1.62329917212E+009, -3.36618585910E-002, -8.30559132258E-001
+1.66219818925E+009, -3.57493812533E-002, -8.16390088143E-001
+1.70109720638E+009, -6.71490009282E-002, -8.09490828176E-001
+1.73999622351E+009, -1.07752998769E-001, -8.14553016640E-001
+1.77889524064E+009, -1.15283496160E-001, -8.10094759944E-001
+1.81779425777E+009, -1.18461612239E-001, -7.94449106694E-001
+1.85669327490E+009, -1.50212919780E-001, -7.91444761985E-001
+1.89559229203E+009, -1.85250711893E-001, -7.94350226239E-001
+1.93449130915E+009, -1.89125417224E-001, -7.85439896088E-001
+1.97339032628E+009, -1.94234119110E-001, -7.70301534261E-001
+2.01228934341E+009, -2.33704857047E-001, -7.64639526553E-001
+2.05118836054E+009, -2.59615799088E-001, -7.63887851100E-001
+2.09008737767E+009, -2.41356806586E-001, -7.56940188128E-001
+2.12898639480E+009, -2.34524701510E-001, -7.41885420692E-001
+2.16788541193E+009, -2.72199100996E-001, -7.43879285434E-001
+2.20678442906E+009, -3.01884964802E-001, -7.36447811396E-001
+2.25242670217E+009, -2.67349726799E-001, -7.38614756133E-001
+2.30582479487E+009, -2.76053789850E-001, -7.31433345034E-001
+2.35922288757E+009, -3.29710714798E-001, -7.12478257582E-001
+2.41262098027E+009, -2.95155170170E-001, -7.20951664590E-001
+2.46601907298E+009, -2.97485550800E-001, -7.13269444504E-001
+2.51941716568E+009, -3.46885032973E-001, -6.89869477349E-001
+2.57281525838E+009, -3.16690186332E-001, -7.01778830987E-001
+2.62621335108E+009, -3.20372525655E-001, -6.93711673333E-001
+2.67961144379E+009, -3.65671841481E-001, -6.64423858836E-001
+2.73300953649E+009, -3.59953565668E-001, -6.67165353580E-001
+2.78640762919E+009, -3.74411687159E-001, -6.58411387433E-001
+2.83980572189E+009, -4.01813340919E-001, -6.32845169352E-001
+2.89320381460E+009, -4.01060007649E-001, -6.38193253802E-001
+2.94660190730E+009, -4.08254507845E-001, -6.29495176684E-001
+3.00000000000E+009, -4.19642614570E-001, -6.10247707254E-001
