"# Channel 1"
"# Trace 1"
Frequency, Formatted Data, Formatted Data
+5.00000000000E+007, -9.74926350919E-001, +2.78739704547E-002
+5.11853458461E+007, -9.75070906632E-001, +2.74279738916E-002
+5.23706916923E+007, -9.75209554385E-001, +2.69854002890E-002
+5.35560375384E+007, -9.75321157263E-001, +2.65114978327E-002
+5.47413833845E+007, -9.75422166400E-001, +2.60252323543E-002
+5.59267292306E+007, -9.75495632514E-001, +2.55139236944E-002
+5.71120750768E+007, -9.75552462477E-001, +2.49984274879E-002
+5.82974209229E+007, -9.75593294484E-001, +2.44515630220E-002
+5.94827667690E+007, -9.75617044441E-001, +2.38969943304E-002
+6.06681126151E+007, -9.75731158604E-001, +2.33212560862E-002
+6.18534584613E+007, -9.75897091120E-001, +2.27739127215E-002
+6.30388043074E+007, -9.76049169885E-001, +2.22028634453E-002
+6.42241501535E+007, -9.76218199307E-001, +2.16159338465E-002
+6.54094959996E+007, -9.76354086546E-001, +2.10043388575E-002
+6.65948418458E+007, -9.76474736273E-001, +2.03853938511E-002
+6.79722033673E+007, -9.76612062286E-001, +1.96980187860E-002
+6.96010170503E+007, -9.76759654965E-001, +1.88383452249E-002
+7.12298307333E+007, -9.76992949640E-001, +1.79990466849E-002
+7.28586444162E+007, -9.77211653929E-001, +1.71577831173E-002
+7.44874580992E+007, -9.77391758970E-001, +1.63351292164E-002
+7.61162717822E+007, -9.77554334183E-001, +1.55232182208E-002
+7.77450854652E+007, -9.77668694132E-001, +1.46911445942E-002
+7.93738991482E+007, -9.77747753654E-001, +1.38643430702E-002
+8.10027128312E+007, -9.77859757354E-001, +1.30465808931E-002
+8.26315265142E+007, -9.77978318605E-001, +1.22641911629E-002
+8.42603401972E+007, -9.78069710763E-001, +1.15152827260E-002
+8.58891538801E+007, -9.78137840989E-001, +1.08117166014E-002
+8.75179675631E+007, -9.78172594843E-001, +1.01455782044E-002
+8.91467812461E+007, -9.78188803104E-001, +9.50414856364E-003
+9.07755949291E+007, -9.78139551146E-001, +8.95711272475E-003
+9.24044086121E+007, -9.78134268510E-001, +8.39393942531E-003
+9.43155818098E+007, -9.78087696916E-001, +7.83346364867E-003
+9.65515134723E+007, -9.77955833535E-001, +7.18578060302E-003
+9.87874451347E+007, -9.77797344679E-001, +6.62742733536E-003
+1.01023376797E+008, -9.77571479931E-001, +6.23089067454E-003
+1.03259308460E+008, -9.77348771732E-001, +5.93999804931E-003
+1.05495240122E+008, -9.77066817579E-001, +5.72337233646E-003
+1.07731171785E+008, -9.76695484690E-001, +5.58784582886E-003
+1.09967103447E+008, -9.76276865495E-001, +5.49610778455E-003
+1.12203035110E+008, -9.75811135610E-001, +5.49032341569E-003
+1.14438966772E+008, -9.75280456382E-001, +5.60343546079E-003
+1.16674898434E+008, -9.74710720738E-001, +5.79722459915E-003
+1.18910830097E+008, -9.74102825825E-001, +6.06545414562E-003
+1.21146761759E+008, -9.73429059287E-001, +6.37498760599E-003
+1.23382693422E+008, -9.72753447573E-001, +6.74036670705E-003
+1.25618625084E+008, -9.72048942028E-001, +7.19893411381E-003
+1.28216758150E+008, -9.71227912791E-001, +7.83831577922E-003
+1.31289208353E+008, -9.70197491838E-001, +8.69879745709E-003
+1.34361658556E+008, -9.69198427646E-001, +9.62205991912E-003
+1.37434108760E+008, -9.68140748742E-001, +1.05095419003E-002
+1.40506558963E+008, -9.67138247955E-001, +1.13705899735E-002
+1.43579009167E+008, -9.66157288072E-001, +1.22247064938E-002
+1.46651459370E+008, -9.65259892752E-001, +1.30730575587E-002
+1.49723909573E+008, -9.64437141233E-001, +1.39523551155E-002
+1.52796359777E+008, -9.63550349948E-001, +1.48744319532E-002
+1.55868809980E+008, -9.62708469869E-001, +1.57457135214E-002
+1.58941260184E+008, -9.61976032046E-001, +1.65284475549E-002
+1.62013710387E+008, -9.61328531485E-001, +1.70821928314E-002
+1.65086160591E+008, -9.60794042362E-001, +1.75547498768E-002
+1.68158610794E+008, -9.60389800372E-001, +1.79629032425E-002
+1.71231060997E+008, -9.60125984139E-001, +1.84233061044E-002
+1.74303511201E+008, -9.59988712615E-001, +1.89258453941E-002
+1.77908579442E+008, -9.59987126002E-001, +1.95519941313E-002
+1.82126243355E+008, -9.60145866727E-001, +2.02019179917E-002
+1.86343907268E+008, -9.60330783291E-001, +2.03217711328E-002
+1.90561571180E+008, -9.60660350639E-001, +2.04688701543E-002
+1.94779235093E+008, -9.61132968972E-001, +2.04154950353E-002
+1.98996899006E+008, -9.61770131227E-001, +1.98127215400E-002
+2.03214562918E+008, -9.62727545204E-001, +1.87536497401E-002
+2.07432226831E+008, -9.63702307250E-001, +1.64234298438E-002
+2.11649890744E+008, -9.64217128904E-001, +1.44256334821E-002
+2.15867554656E+008, -9.64549541858E-001, +1.40742218299E-002
+2.20085218569E+008, -9.64829813653E-001, +1.46172721001E-002
+2.24302882482E+008, -9.65014184131E-001, +1.54160136757E-002
+2.28520546394E+008, -9.65055852601E-001, +1.61670383862E-002
+2.32738210307E+008, -9.64957291683E-001, +1.69071918655E-002
+2.36955874219E+008, -9.64695311189E-001, +1.76945405617E-002
+2.41856762853E+008, -9.64182986231E-001, +1.86139328251E-002
+2.47652361423E+008, -9.63310955410E-001, +1.98221446532E-002
+2.53447959994E+008, -9.62157944325E-001, +2.03906522472E-002
+2.59243558564E+008, -9.60749848862E-001, +2.07746386860E-002
+2.65039157134E+008, -9.59190094862E-001, +2.17283121594E-002
+2.70834755705E+008, -9.57519197393E-001, +2.30340542836E-002
+2.76630354275E+008, -9.55734090580E-001, +2.46574269425E-002
+2.82425952845E+008, -9.53945642983E-001, +2.62624143690E-002
+2.88221551416E+008, -9.52355745996E-001, +2.75060478700E-002
+2.94017149986E+008, -9.51010497922E-001, +2.85683966723E-002
+2.99812748556E+008, -9.49941921595E-001, +2.94018033839E-002
+3.05608347127E+008, -9.48499349670E-001, +3.25484990100E-002
+3.11403945697E+008, -9.47101376420E-001, +3.52224329871E-002
+3.17199544267E+008, -9.46087061409E-001, +3.69115677440E-002
+3.22995142838E+008, -9.45794488496E-001, +3.74663574956E-002
+3.28790741408E+008, -9.46223654426E-001, +3.74119895102E-002
+3.35591023581E+008, -9.47811950555E-001, +3.71777861986E-002
+3.43546852097E+008, -9.51847922270E-001, +3.42901001626E-002
+3.51502680613E+008, -9.54532447746E-001, +1.33707196099E-002
+3.59458509129E+008, -9.54242632173E-001, +7.82394148488E-003
+3.67414337645E+008, -9.55800949499E-001, +1.04446261710E-002
+3.75370166161E+008, -9.56524149474E-001, +1.28003190553E-002
+3.83325994677E+008, -9.55917122268E-001, +1.35117675433E-002
+3.91281823193E+008, -9.54580465888E-001, +1.47390702805E-002
+3.99237651709E+008, -9.52635228643E-001, +1.67648765579E-002
+4.07193480225E+008, -9.50275054574E-001, +2.11628238255E-002
+4.15149308741E+008, -9.47622826463E-001, +2.58735202050E-002
+4.23105137257E+008, -9.44974008436E-001, +3.03331140865E-002
+4.31060965773E+008, -9.42632580750E-001, +3.42628718015E-002
+4.39016794289E+008, -9.40838536359E-001, +3.68713091846E-002
+4.46972622805E+008, -9.39893845886E-001, +3.83009255228E-002
+4.56217226062E+008, -9.39531023322E-001, +3.95004303666E-002
+4.67149531084E+008, -9.40396340402E-001, +3.86681107573E-002
+4.78081836106E+008, -9.42532125721E-001, +3.49734388392E-002
+4.89014141128E+008, -9.45210121338E-001, +2.89081180939E-002
+4.99946446150E+008, -9.47708451570E-001, +2.17844277436E-002
+5.10878751172E+008, -9.49085694814E-001, +1.37134776204E-002
+5.21811056194E+008, -9.49458001421E-001, +7.18901725542E-003
+5.32743361216E+008, -9.48525844904E-001, +2.73211250299E-003
+5.43675666238E+008, -9.46069163710E-001, +1.34114338577E-004
+5.54607971260E+008, -9.42841290905E-001, +1.17815673945E-003
+5.65540276281E+008, -9.39253762415E-001, +4.35202477618E-003
+5.76472581303E+008, -9.35962165013E-001, +9.57890125266E-003
+5.87404886325E+008, -9.33750762683E-001, +1.56243860272E-002
+5.98337191347E+008, -9.32810533118E-001, +2.10745239936E-002
+6.09269496369E+008, -9.33813840729E-001, +2.52204123843E-002
+6.20201801391E+008, -9.35479876481E-001, +2.69358498369E-002
+6.33029252784E+008, -9.38678271573E-001, +2.63539159332E-002
+6.48036424690E+008, -9.42382598983E-001, +2.05284132159E-002
+6.63043596595E+008, -9.44333632735E-001, +1.21934469951E-002
+6.78050768500E+008, -9.44282680180E-001, +6.60378676876E-003
+6.93057940405E+008, -9.41047651215E-001, +4.69542830477E-003
+7.08065112311E+008, -9.35397453839E-001, +6.46572000611E-003
+7.23072284216E+008, -9.30101458748E-001, +1.35460859738E-002
+7.38079456121E+008, -9.26923341349E-001, +2.37784859581E-002
+7.53086628027E+008, -9.27245700664E-001, +3.32153262369E-002
+7.68093799932E+008, -9.30432243478E-001, +3.73930985747E-002
+7.83100971837E+008, -9.34681199434E-001, +3.60045982068E-002
+7.98108143742E+008, -9.38029555934E-001, +2.70087248550E-002
+8.13115315648E+008, -9.40588842576E-001, +1.64138192437E-002
+8.28122487553E+008, -9.39917000941E-001, +5.20276306914E-003
+8.43129659458E+008, -9.36334696338E-001, -3.30500404353E-003
+8.60567862154E+008, -9.29995342329E-001, -4.76554691157E-003
+8.81189596327E+008, -9.23004222056E-001, +7.36473727207E-003
+9.01811330501E+008, -9.21074427285E-001, +2.63975002433E-002
+9.22433064674E+008, -9.25031461235E-001, +3.48544584344E-002
+9.43054798847E+008, -9.32254096571E-001, +2.66443867973E-002
+9.63676533021E+008, -9.36563006785E-001, +6.03061815203E-003
+9.84298267194E+008, -9.34384760142E-001, -1.48146643437E-002
+1.00492000137E+009, -9.26877980147E-001, -2.39620879916E-002
+1.02554173554E+009, -9.17588553996E-001, -9.11197630184E-003
+1.04616346971E+009, -9.13787140774E-001, +2.42790118704E-002
+1.06678520389E+009, -9.16884120761E-001, +5.82402802715E-002
+1.08740693806E+009, -9.24317222854E-001, +7.18148870493E-002
+1.10802867223E+009, -9.32439664121E-001, +5.55406216528E-002
+1.12865040641E+009, -9.34634771447E-001, +2.06617781514E-002
+1.14927214058E+009, -9.28133830193E-001, -1.40809807675E-002
+1.16989387475E+009, -9.19202350507E-001, -3.19362432743E-002
+1.19409044558E+009, -9.12511951685E-001, -1.57828944713E-002
+1.22239864857E+009, -9.16864227684E-001, +3.22303161022E-002
+1.25070685156E+009, -9.25944724978E-001, +5.96748753473E-002
+1.27901505455E+009, -9.28826603130E-001, +4.19277263013E-002
+1.30732325754E+009, -9.21794670836E-001, +8.28766243771E-003
+1.33563146054E+009, -9.12292033198E-001, +8.45805614743E-004
+1.36393966353E+009, -9.11581657223E-001, +2.80169201428E-002
+1.39224786652E+009, -9.19713294542E-001, +5.93911360666E-002
+1.42055606951E+009, -9.25081901949E-001, +5.57801190880E-002
+1.44886427250E+009, -9.21363259884E-001, +2.20026408921E-002
+1.47717247549E+009, -9.11585712206E-001, -6.63635900587E-003
+1.50548067848E+009, -9.08001437427E-001, +3.01369523260E-003
+1.53378888148E+009, -9.14124592035E-001, +3.12656369837E-002
+1.56209708447E+009, -9.20815121822E-001, +4.47644068801E-002
+1.59040528746E+009, -9.19346148892E-001, +3.04020535936E-002
+1.62329917212E+009, -9.09204854609E-001, +8.57096544405E-003
+1.66219818925E+009, -9.06649182049E-001, +1.31759196494E-002
+1.70109720638E+009, -9.18052708461E-001, +3.46662146597E-002
+1.73999622351E+009, -9.16582657695E-001, +2.46755588048E-002
+1.77889524064E+009, -9.03414282981E-001, +7.56376197183E-004
+1.81779425777E+009, -9.04988232463E-001, +7.21215917071E-003
+1.85669327490E+009, -9.17210143450E-001, +2.33839166986E-002
+1.89559229203E+009, -9.11684561687E-001, +1.14293169862E-002
+1.93449130915E+009, -8.98914754165E-001, -4.53260580923E-003
+1.97339032628E+009, -9.04574798213E-001, +5.91263998357E-003
+2.01228934341E+009, -9.14725465611E-001, +1.78371032074E-002
+2.05118836054E+009, -9.05550338270E-001, -1.05788296542E-002
+2.09008737767E+009, -8.93546751872E-001, -3.88936290739E-002
+2.12898639480E+009, -8.98417866001E-001, -1.76081484788E-002
+2.16788541193E+009, -9.13597298710E-001, +1.11488566304E-003
+2.20678442906E+009, -8.99827700797E-001, -2.20944226198E-002
+2.25242670217E+009, -8.90795649877E-001, -6.53461852203E-002
+2.30582479487E+009, -9.04657611002E-001, -1.78524546556E-002
+2.35922288757E+009, -8.96155795849E-001, -2.69115216800E-002
+2.41262098027E+009, -8.90977363597E-001, -8.13296277269E-002
+2.46601907298E+009, -8.98158340103E-001, -3.06991817573E-002
+2.51941716568E+009, -8.91564708186E-001, -3.16216781809E-002
+2.57281525838E+009, -8.88882365772E-001, -8.30322935696E-002
+2.62621335108E+009, -8.94843735126E-001, -3.52883113296E-002
+2.67961144379E+009, -8.87214757539E-001, -2.37837976676E-002
+2.73300953649E+009, -8.93231892474E-001, -5.26597649642E-002
+2.78640762919E+009, -8.93315983386E-001, -2.19277772294E-002
+2.83980572189E+009, -8.87137646822E-001, -2.13406607925E-002
+2.89320381460E+009, -8.95428110371E-001, -4.42112383578E-002
+2.94660190730E+009, -8.89349283853E-001, -2.79468789724E-002
+3.00000000000E+009, -8.85143762693E-001, -3.33180182496E-002
